<Qucs Dataset 0.0.15>
<indep x 10>
  +5.00000000000e+00
  +1.00000000000e+01
  +1.50000000000e+01
  +2.00000000000e+01
  +2.50000000000e+01
  +3.00000000000e+01
  +3.50000000000e+01
  +4.00000000000e+01
  +4.50000000000e+01
  +5.00000000000e+01
</indep>
<dep V1.I x>
  -1.78333333333e+00
  -9.72727272727e-01
  -6.68750000000e-01
  -5.09523809524e-01
  -4.11538461538e-01
  -3.45161290323e-01
  -2.97222222222e-01
  -2.60975609756e-01
  -2.32608695652e-01
  -2.09803921569e-01
</dep>
<dep izeja.V x>
  +8.91666666667e+00
  +9.72727272727e+00
  +1.00312500000e+01
  +1.01904761905e+01
  +1.02884615385e+01
  +1.03548387097e+01
  +1.04027777778e+01
  +1.04390243902e+01
  +1.04673913043e+01
  +1.04901960784e+01
</dep>
<dep _net0.V x>
  +1.07000000000e+01
  +1.07000000000e+01
  +1.07000000000e+01
  +1.07000000000e+01
  +1.07000000000e+01
  +1.07000000000e+01
  +1.07000000000e+01
  +1.07000000000e+01
  +1.07000000000e+01
  +1.07000000000e+01
</dep>
